Freq.	V(n001)
0.00000000000000e+00	1.11596802796362e-02,0.00000000000000e+00
5.00000000000000e+06	1.58061741482879e-02,2.75987119425354e-05
1.00000000000000e+07	1.59163645419383e-02,5.21703038034815e-05
1.50000000000000e+07	1.61030921906941e-02,7.03878242323434e-05
2.00000000000000e+07	1.63711952203230e-02,7.83196471083590e-05
2.50000000000000e+07	1.67277699314810e-02,7.10149935548039e-05
3.00000000000000e+07	1.71826238046525e-02,4.19192867282953e-05
3.50000000000000e+07	1.77488858248154e-02,-1.80163459526699e-05
4.00000000000000e+07	1.84434826606875e-02,-1.20940076645766e-04
4.50000000000000e+07	1.92869390498738e-02,-2.81369670760599e-04
5.00000000000000e+07	2.03166480614861e-02,-5.46204615061063e-04
5.50000000000000e+07	2.15565212527760e-02,-9.28170889764367e-04
6.00000000000000e+07	2.30578564977321e-02,-1.50401443588602e-03
6.50000000000000e+07	2.48734745240563e-02,-2.37137511640825e-03
7.00000000000000e+07	2.70586846064697e-02,-3.68930630933603e-03
7.50000000000000e+07	2.96489652921837e-02,-5.71712341535244e-03
8.00000000000000e+07	3.25946911264453e-02,-8.87471033131094e-03
8.50000000000000e+07	3.55893426277001e-02,-1.38027755110751e-02
9.00000000000000e+07	3.76804460972197e-02,-2.12863224453935e-02
9.50000000000000e+07	3.67728721954281e-02,-3.16174254687679e-02
1.00000000000000e+08	2.98476193297074e-02,-4.26090276729293e-02
1.05000000000000e+08	1.68646064647681e-02,-4.90007820635437e-02
1.10000000000000e+08	3.18916850872770e-03,-4.74985484817723e-02
1.15000000000000e+08	-6.13430450214455e-03,-4.09521283741045e-02
1.20000000000000e+08	-1.07593833673545e-02,-3.35601920314888e-02
1.25000000000000e+08	-1.24227581633367e-02,-2.72667520975500e-02
1.30000000000000e+08	-1.25922054659823e-02,-2.23850570953290e-02
1.35000000000000e+08	-1.20960569339444e-02,-1.86883126116449e-02
1.40000000000000e+08	-3.85327450222333e-01,6.66078742600391e-01
1.45000000000000e+08	-1.05224586667849e-02,-1.37170044292880e-02
1.50000000000000e+08	-9.72017143912453e-03,-1.20230542689878e-02
1.55000000000000e+08	-8.97101152673782e-03,-1.06734883520091e-02
1.60000000000000e+08	-8.28685105814132e-03,-9.58076358843621e-03
1.65000000000000e+08	-7.66904205961064e-03,-8.68244713578660e-03
1.70000000000000e+08	-7.11405119932137e-03,-7.93316214348180e-03
1.75000000000000e+08	-6.61556552097830e-03,-7.29903450933898e-03
1.80000000000000e+08	-6.16466957704185e-03,-6.75573699818475e-03
1.85000000000000e+08	-5.73947942673623e-03,-6.28909228609727e-03
1.90000000000000e+08	-5.40969669578405e-03,-5.87363270665231e-03
1.95000000000000e+08	-5.06755328869881e-03,-5.51741795975255e-03
2.00000000000000e+08	-4.76173156085701e-03,-5.20251122291847e-03
2.05000000000000e+08	-4.48407639828267e-03,-4.92270772401870e-03
2.10000000000000e+08	-4.23085519329904e-03,-4.67257125528994e-03
2.15000000000000e+08	-3.99918476961298e-03,-4.44771016418396e-03
2.20000000000000e+08	-3.78653614801307e-03,-4.24458174260000e-03
2.25000000000000e+08	-3.59086139256243e-03,-4.06054946474953e-03
2.30000000000000e+08	-3.41008746293705e-03,-3.89443069036891e-03
2.35000000000000e+08	-3.24556767760967e-03,-3.72938933995853e-03
2.40000000000000e+08	-3.09016017133740e-03,-3.59332236601652e-03
2.45000000000000e+08	-2.94676623547593e-03,-3.46363890131702e-03
2.50000000000000e+08	-2.81375842245439e-03,-3.34317333638384e-03
2.55000000000000e+08	-2.68980407036099e-03,-3.23129874991328e-03
2.60000000000000e+08	-2.57415440507538e-03,-3.12709910077875e-03
2.65000000000000e+08	-2.46608227687895e-03,-3.02985087237166e-03
2.70000000000000e+08	-2.36489708194092e-03,-2.93888198967383e-03
2.75000000000000e+08	-2.27003882622542e-03,-2.85355951632612e-03
2.80000000000000e+08	-2.20122454918154e-03,-2.77470932791889e-03
2.85000000000000e+08	-2.09715050534289e-03,-2.69786867993999e-03
2.90000000000000e+08	-2.01816610493617e-03,-2.62666410218634e-03
2.95000000000000e+08	-1.94364455569163e-03,-2.55940790665694e-03
3.00000000000000e+08	-1.87325173436758e-03,-2.49586506878713e-03
3.05000000000000e+08	-1.80666753091419e-03,-2.43570581186877e-03
3.10000000000000e+08	-1.74362450515556e-03,-2.37871920226208e-03
3.15000000000000e+08	-1.68383988006802e-03,-2.32479492342481e-03
3.20000000000000e+08	-1.62653311641361e-03,-2.27371387454018e-03
3.25000000000000e+08	-1.56590207677977e-03,-2.22799412294392e-03
3.30000000000000e+08	-1.53037600631280e-03,-2.17453594420045e-03
3.35000000000000e+08	-1.47979881748295e-03,-2.13116311898063e-03
3.40000000000000e+08	-1.43406156673806e-03,-2.08860858731169e-03
3.45000000000000e+08	-1.39107085735609e-03,-2.04752310938733e-03
3.50000000000000e+08	-1.35051493719596e-03,-2.00793929175119e-03
3.55000000000000e+08	-1.31226969255114e-03,-1.96982506616399e-03
3.60000000000000e+08	-1.27654568162693e-03,-1.93312804430609e-03
3.65000000000000e+08	-1.24413771413231e-03,-1.89798044352699e-03
3.70000000000000e+08	-1.22094875033501e-03,-1.86685914140916e-03
3.75000000000000e+08	-1.13801903602172e-03,-1.80656643396570e-03
3.80000000000000e+08	-1.13041505112805e-03,-1.78281383924579e-03
3.85000000000000e+08	-1.09989014829861e-03,-1.75051967898249e-03
3.90000000000000e+08	-1.06720991134851e-03,-1.72080392484168e-03
3.95000000000000e+08	-1.03592772718568e-03,-1.69400328531495e-03
4.00000000000000e+08	-1.00701841479230e-03,-1.66886178436235e-03
4.05000000000000e+08	-9.80243555424585e-04,-1.64444011239050e-03
4.10000000000000e+08	-9.55124876114269e-04,-1.62036527490146e-03
4.15000000000000e+08	-9.31188822834545e-04,-1.59653770365870e-03
4.20000000000000e+08	-8.08157405380285e-04,-2.37824753659885e-03
4.25000000000000e+08	-8.86033974897911e-04,-1.54996259084673e-03
4.30000000000000e+08	-8.64609866698059e-04,-1.52720511472680e-03
4.35000000000000e+08	-8.43760398612291e-04,-1.50468905827656e-03
4.40000000000000e+08	-8.23139562292607e-04,-1.48237852703924e-03
4.45000000000000e+08	-8.02343454386595e-04,-1.46046688017810e-03
4.50000000000000e+08	-7.81033799371785e-04,-1.43959590881257e-03
4.55000000000000e+08	-7.59675515883218e-04,-1.42083451894816e-03
4.60000000000000e+08	-7.40383806305715e-04,-1.40428757772881e-03
4.65000000000000e+08	-7.30487573978606e-04,-1.38440588507918e-03
4.70000000000000e+08	-6.99143878053282e-04,-1.38073700884858e-03
4.75000000000000e+08	-6.87907374342874e-04,-1.36336187060810e-03
4.80000000000000e+08	-6.74866463837810e-04,-1.34724728669431e-03
4.85000000000000e+08	-6.61736597745191e-04,-1.33136321649862e-03
4.90000000000000e+08	-6.48776547384564e-04,-1.31569166312973e-03
4.95000000000000e+08	-6.36111302471509e-04,-1.30026281569356e-03
5.00000000000000e+08	-6.23866747373404e-04,-1.28502135119319e-03
5.05000000000000e+08	-6.12291956408379e-04,-1.26975132965929e-03
5.10000000000000e+08	-6.03000959794682e-04,-1.25312067928754e-03
5.15000000000000e+08	-5.78116834480927e-04,-1.25003399739452e-03
5.20000000000000e+08	-5.73389128574906e-04,-1.23062340196352e-03
5.25000000000000e+08	-5.63236770082614e-04,-1.21620328667415e-03
5.30000000000000e+08	-5.52700180886440e-04,-1.20258808169807e-03
5.35000000000000e+08	-5.42260805848971e-04,-1.18941580481179e-03
5.40000000000000e+08	-5.32012926318849e-04,-1.17662791436911e-03
5.45000000000000e+08	-5.21991452915106e-04,-1.16414399702156e-03
5.50000000000000e+08	-5.12188993981022e-04,-1.15194523590639e-03
5.55000000000000e+08	-5.02579464357076e-04,-1.14003838849808e-03
5.60000000000000e+08	-4.77110689038662e-04,-1.12795929690614e-03
5.65000000000000e+08	-4.84071169328347e-04,-1.11715262481151e-03
5.70000000000000e+08	-4.75252840358476e-04,-1.10611806759802e-03
5.75000000000000e+08	-4.66720186903571e-04,-1.09529901396530e-03
5.80000000000000e+08	-4.58459020103499e-04,-1.08461078000468e-03
5.85000000000000e+08	-4.50455065091539e-04,-1.07407560321381e-03
5.90000000000000e+08	-4.42715257847911e-04,-1.06365295722356e-03
5.95000000000000e+08	-4.35321744150013e-04,-1.05328199088220e-03
6.00000000000000e+08	-4.28856901151712e-04,-1.04286121138784e-03
6.05000000000000e+08	-4.30245977825526e-04,-1.03029183027999e-03
6.10000000000000e+08	-4.04368744549624e-04,-1.02579015816248e-03
6.15000000000000e+08	-4.00215319561116e-04,-1.01511266361349e-03
6.20000000000000e+08	-3.93212457188633e-04,-1.00553333193699e-03
6.25000000000000e+08	-3.85691415903855e-04,-9.96451801659727e-04
6.30000000000000e+08	-3.77931874132349e-04,-9.87715774213027e-04
6.35000000000000e+08	-3.69915168574256e-04,-9.79219671778661e-04
6.40000000000000e+08	-3.61287090075282e-04,-9.70870629356103e-04
6.45000000000000e+08	-3.51026496432244e-04,-9.62350534382462e-04
6.50000000000000e+08	-3.32217631936032e-04,-9.50588606622688e-04
6.55000000000000e+08	-3.82874607580331e-04,-9.73480107574227e-04
6.60000000000000e+08	-3.49154101667273e-04,-9.55700993101021e-04
6.65000000000000e+08	-3.42369301626041e-04,-9.49419666044023e-04
6.70000000000000e+08	-3.39288719218752e-04,-9.42324393009020e-04
6.75000000000000e+08	-3.36390763932059e-04,-9.33799560404783e-04
6.80000000000000e+08	-3.32638859391948e-04,-9.24797185558241e-04
6.85000000000000e+08	-3.28107597442309e-04,-9.16073942361333e-04
6.90000000000000e+08	-3.23140151798939e-04,-9.07934410349422e-04
6.95000000000000e+08	-3.18109094550691e-04,-9.00433639102803e-04
7.00000000000000e+08	-4.25867196585508e-04,-2.23033387987822e-04
7.05000000000000e+08	-3.08429845972902e-04,-8.86843262878484e-04
7.10000000000000e+08	-3.03865975563065e-04,-8.80677459639578e-04
7.15000000000000e+08	-2.99598480990973e-04,-8.74971802409989e-04
7.20000000000000e+08	-2.95866761710987e-04,-8.69733973505937e-04
7.25000000000000e+08	-2.92972863063437e-04,-8.64800778154022e-04
7.30000000000000e+08	-2.91197186004524e-04,-8.59659676075138e-04
7.35000000000000e+08	-2.90214767892358e-04,-8.53473374910193e-04
7.40000000000000e+08	-2.88447596419938e-04,-8.46368947691576e-04
7.45000000000000e+08	-2.82415220941149e-04,-8.46797475426373e-04
7.50000000000000e+08	-2.84263143695680e-04,-8.19122657934750e-04
7.55000000000000e+08	-2.78209393183802e-04,-8.15393908910138e-04
7.60000000000000e+08	-2.73073283879517e-04,-8.09601433685940e-04
7.65000000000000e+08	-2.68292848997232e-04,-8.03811525125770e-04
7.70000000000000e+08	-2.63751566511994e-04,-7.98184938872810e-04
7.75000000000000e+08	-2.59334294153877e-04,-7.92728574231841e-04
7.80000000000000e+08	-2.54888404628476e-04,-7.87496145682207e-04
7.85000000000000e+08	-2.50014157859613e-04,-7.82647499857257e-04
7.90000000000000e+08	-2.42068307560061e-04,-7.79286191376357e-04
7.95000000000000e+08	-2.60022337393665e-04,-7.64802706465136e-04
8.00000000000000e+08	-2.45835484834196e-04,-7.64457105838203e-04
8.05000000000000e+08	-2.40986673400379e-04,-7.60223203666712e-04
8.10000000000000e+08	-2.37213672936434e-04,-7.55645104397107e-04
8.15000000000000e+08	-2.33817946706206e-04,-7.51006485935075e-04
8.20000000000000e+08	-2.30625480935802e-04,-7.46357981408834e-04
8.25000000000000e+08	-2.27564805967853e-04,-7.41763952524101e-04
8.30000000000000e+08	-2.24640895239410e-04,-7.37238680846067e-04
8.35000000000000e+08	-2.21863325111988e-04,-7.32755719245576e-04
8.40000000000000e+08	-2.30592249629423e-04,-7.28688035634108e-04
8.45000000000000e+08	-2.16581700933391e-04,-7.23772552060087e-04
8.50000000000000e+08	-2.13955961341109e-04,-7.19298831498637e-04
8.55000000000000e+08	-2.11326559446270e-04,-7.14890698634893e-04
8.60000000000000e+08	-2.08697034180974e-04,-7.10617196723324e-04
8.65000000000000e+08	-2.06074505278689e-04,-7.06449328762148e-04
8.70000000000000e+08	-2.03432851918694e-04,-7.02411645687336e-04
8.75000000000000e+08	-2.00670031403936e-04,-6.98539166452685e-04
8.80000000000000e+08	-1.97219356507760e-04,-6.94950174343430e-04
8.85000000000000e+08	-1.86333005291537e-04,-6.93366149284451e-04
8.90000000000000e+08	-2.02168012588139e-04,-6.85366069744857e-04
8.95000000000000e+08	-1.97099479058282e-04,-6.82685948910094e-04
9.00000000000000e+08	-1.95015041237082e-04,-6.79285060022897e-04
9.05000000000000e+08	-1.93641967339131e-04,-6.75634802759595e-04
9.10000000000000e+08	-1.92673308180870e-04,-6.71882515088620e-04
9.15000000000000e+08	-1.92136746247176e-04,-6.68144949118772e-04
9.20000000000000e+08	-1.92381798424408e-04,-6.64552073798316e-04
9.25000000000000e+08	-1.94480716409292e-04,-6.61487231714682e-04
9.30000000000000e+08	-2.05685786450079e-04,-6.62401906190300e-04
9.35000000000000e+08	-1.44801674106746e-04,-6.26027303951026e-04
9.40000000000000e+08	-1.72465572496515e-04,-6.34422605794929e-04
9.45000000000000e+08	-1.72739817515771e-04,-6.30231351081990e-04
9.50000000000000e+08	-1.69513717243266e-04,-6.26448774359653e-04
9.55000000000000e+08	-1.66027315906414e-04,-6.23874321718697e-04
9.60000000000000e+08	-1.63257874831188e-04,-6.21819566480610e-04
9.65000000000000e+08	-1.61212799208002e-04,-6.19672983777455e-04
9.70000000000000e+08	-1.59636091920107e-04,-6.17173016242638e-04
9.75000000000000e+08	-1.58209156917320e-04,-6.14259618305660e-04
9.80000000000000e+08	-3.51937226999762e-05,-1.12527121664462e-03
9.85000000000000e+08	-1.55343108926854e-04,-6.07633949670142e-04
9.90000000000000e+08	-1.53845004626405e-04,-6.03968571541650e-04
9.95000000000000e+08	-1.52199037853395e-04,-6.00031244214576e-04
1.00000000000000e+09	-1.50217590571724e-04,-5.95807115551199e-04
1.00500000000000e+09	-1.47683807623735e-04,-5.91406518521940e-04
1.01000000000000e+09	-1.44377438742332e-04,-5.87143347151837e-04
1.01500000000000e+09	-1.40498932425134e-04,-5.83512337783742e-04
1.02000000000000e+09	-1.37172595074582e-04,-5.79915029954104e-04
1.02500000000000e+09	-1.36408920795726e-04,-5.62811714949336e-04
1.03000000000000e+09	-1.32434469111597e-04,-5.94996206298773e-04
1.03500000000000e+09	-1.32473310038854e-04,-5.86842259243230e-04
1.04000000000000e+09	-1.32188184700766e-04,-5.83103747576984e-04
1.04500000000000e+09	-1.31764793676769e-04,-5.79939483164916e-04
1.05000000000000e+09	-1.31270610054315e-04,-5.76912253292939e-04
1.05500000000000e+09	-1.30798026558202e-04,-5.73918248730267e-04
1.06000000000000e+09	-1.30489959518517e-04,-5.70879851581490e-04
1.06500000000000e+09	-1.30781727635032e-04,-5.67689201494735e-04
1.07000000000000e+09	-1.34757104057652e-04,-5.63713686705035e-04
1.07500000000000e+09	-1.08531654302400e-04,-5.66641931700336e-04
1.08000000000000e+09	-1.20042758061808e-04,-5.61049153133553e-04
1.08500000000000e+09	-1.20761974444590e-04,-5.57906178574626e-04
1.09000000000000e+09	-1.20365731374806e-04,-5.55044280020015e-04
1.09500000000000e+09	-1.19639052370749e-04,-5.52290317528034e-04
1.10000000000000e+09	-1.18779940722992e-04,-5.49607707010850e-04
1.10500000000000e+09	-1.17858210658352e-04,-5.46940064166553e-04
1.11000000000000e+09	-1.16872727319266e-04,-5.44275029032253e-04
1.11500000000000e+09	-1.15808230626381e-04,-5.41640316319695e-04
1.12000000000000e+09	-1.08004339766276e-04,-5.38395160224573e-04
1.12500000000000e+09	-1.13588079081869e-04,-5.36599479065040e-04
1.13000000000000e+09	-1.12538111614681e-04,-5.34175803639473e-04
1.13500000000000e+09	-1.11541364845859e-04,-5.31767985291105e-04
1.14000000000000e+09	-1.10598018622267e-04,-5.29319391688578e-04
1.14500000000000e+09	-1.09696960558830e-04,-5.26852849134815e-04
1.15000000000000e+09	-1.08865982905118e-04,-5.24350300336937e-04
1.15500000000000e+09	-1.08194939470172e-04,-5.21776090464478e-04
1.16000000000000e+09	-1.08147200210673e-04,-5.19004314238901e-04
1.16500000000000e+09	-1.14224820361793e-04,-5.14500999299151e-04
1.17000000000000e+09	-9.85292463875428e-05,-5.15729277224982e-04
1.17500000000000e+09	-9.99087960177747e-05,-5.12278155671067e-04
1.18000000000000e+09	-9.88607414248786e-05,-5.09523963750494e-04
1.18500000000000e+09	-9.72558876236923e-05,-5.07047195714534e-04
1.19000000000000e+09	-9.53597838082314e-05,-5.04708154887203e-04
1.19500000000000e+09	-9.31264007634448e-05,-5.02370842545061e-04
1.20000000000000e+09	-9.02198872117525e-05,-4.99889684055949e-04
1.20500000000000e+09	-8.55943016562836e-05,-4.96841386481035e-04
1.21000000000000e+09	-7.22100446683012e-05,-4.89709671740133e-04
1.21500000000000e+09	-1.28373867934899e-04,-5.19669338101655e-04
1.22000000000000e+09	-9.87468096945347e-05,-5.04792285899991e-04
1.22500000000000e+09	-9.52116027668686e-05,-5.02720982320092e-04
1.23000000000000e+09	-9.49378025663862e-05,-5.00779593418966e-04
1.23500000000000e+09	-9.51280597203916e-05,-4.98083718437374e-04
1.24000000000000e+09	-9.49181320810330e-05,-4.95048395958283e-04
1.24500000000000e+09	-9.42271976036828e-05,-4.92124962899172e-04
1.25000000000000e+09	-9.32228862885768e-05,-4.89515004117409e-04
1.25500000000000e+09	-9.21468948275783e-05,-4.87276786699395e-04
1.26000000000000e+09	-2.09735733982221e-04,-1.31508768791184e-04
1.26500000000000e+09	-9.00653823788210e-05,-4.83546795056537e-04
1.27000000000000e+09	-8.90833013982192e-05,-4.82053975272457e-04
1.27500000000000e+09	-8.82407354573803e-05,-4.80863604137841e-04
1.28000000000000e+09	-8.76813947198607e-05,-4.79981747808537e-04
1.28500000000000e+09	-8.75350829062160e-05,-4.79339254938988e-04
1.29000000000000e+09	-8.79283751947703e-05,-4.78807557731354e-04
1.29500000000000e+09	-8.87212641441234e-05,-4.78260163508972e-04
1.30000000000000e+09	-8.90452856620708e-05,-4.78881766910256e-04
1.30500000000000e+09	-8.60026828916462e-05,-5.00495885244345e-04
1.31000000000000e+09	-9.09047736512381e-05,-4.47152878262022e-04
1.31500000000000e+09	-8.84240339604671e-05,-4.54426567865732e-04
1.32000000000000e+09	-8.67336826288261e-05,-4.54613462789634e-04
1.32500000000000e+09	-8.52505282645531e-05,-4.53704671406253e-04
1.33000000000000e+09	-8.38568608804550e-05,-4.52477522182323e-04
1.33500000000000e+09	-8.24517324229766e-05,-4.51145482764559e-04
1.34000000000000e+09	-8.09220750937870e-05,-4.49819550488682e-04
1.34500000000000e+09	-7.88884359557166e-05,-4.48533184140938e-04
1.35000000000000e+09	-7.34861546975053e-05,-4.47286738972428e-04
1.35500000000000e+09	-9.63629842872957e-05,-4.45034210416389e-04
1.36000000000000e+09	-8.39577497568705e-05,-4.43870311290261e-04
1.36500000000000e+09	-8.16343049003203e-05,-4.42375646805000e-04
1.37000000000000e+09	-8.03398840573250e-05,-4.40840700540431e-04
1.37500000000000e+09	-7.93578422033606e-05,-4.39298244328164e-04
1.38000000000000e+09	-7.85095847840014e-05,-4.37748925073880e-04
1.38500000000000e+09	-7.77253753754694e-05,-4.36231688719732e-04
1.39000000000000e+09	-7.70106033449606e-05,-4.34754783293256e-04
1.39500000000000e+09	-7.63727105281653e-05,-4.33296418119609e-04
1.40000000000000e+09	-7.85972651236996e-05,-4.33040903419095e-04
1.40500000000000e+09	-7.52353574372603e-05,-4.30317105169532e-04
1.41000000000000e+09	-7.46570062335811e-05,-4.28806310138857e-04
1.41500000000000e+09	-7.40615823528273e-05,-4.27313012811032e-04
1.42000000000000e+09	-7.34503012293425e-05,-4.25876742730868e-04
1.42500000000000e+09	-7.28259550002085e-05,-4.24476505187004e-04
1.43000000000000e+09	-7.21661244696964e-05,-4.23127863339288e-04
1.43500000000000e+09	-7.14018863237298e-05,-4.21863691169110e-04
1.44000000000000e+09	-7.02073034186407e-05,-4.20812778160607e-04
1.44500000000000e+09	-6.47728180982106e-05,-4.21327102814856e-04
1.45000000000000e+09	-7.44927110589134e-05,-4.16815144471649e-04
1.45500000000000e+09	-7.24100377875698e-05,-4.16480008072123e-04
1.46000000000000e+09	-7.20748034892682e-05,-4.15564508685112e-04
1.46500000000000e+09	-7.21619114766905e-05,-4.14443546818606e-04
1.47000000000000e+09	-7.24828267303403e-05,-4.13243116362974e-04
1.47500000000000e+09	-7.30851116272298e-05,-4.12102393312236e-04
1.48000000000000e+09	-7.42864941128987e-05,-4.11170905599163e-04
1.48500000000000e+09	-7.70309866053775e-05,-4.10864061395665e-04
1.49000000000000e+09	-8.77160183105662e-05,-4.14500186608848e-04
1.49500000000000e+09	-3.56017386191971e-05,-3.83903681649450e-04
1.50000000000000e+09	-6.13337980296443e-05,-3.95076985911261e-04
1.50500000000000e+09	-6.37984781130101e-05,-3.94264328922319e-04
1.51000000000000e+09	-6.34536478290229e-05,-3.93000561381127e-04
1.51500000000000e+09	-6.25746441349653e-05,-3.92165247469664e-04
1.52000000000000e+09	-6.18699686171796e-05,-3.91569700584200e-04
1.52500000000000e+09	-6.14687897261408e-05,-3.90922178943040e-04
1.53000000000000e+09	-6.12861708747881e-05,-3.90082139349426e-04
